
T0AC4 000:276 SEGGER J-Link V5.00l Log File (0000ms, 0271ms total)
T0AC4 000:276 DLL Compiled: Aug  7 2015 15:52:45 (0000ms, 0271ms total)
T0AC4 000:276 Logging started @ 2016-05-17 19:22 (0000ms, 0271ms total)
T0AC4 000:276 JLINK_SetWarnOutHandler(...) (0000ms, 0271ms total)
T0AC4 000:276 JLINK_OpenEx(...)
Firmware: J-Link ARM V8 compiled Nov 28 2014 13:44:46
Hardware: V8.00
S/N: 11111118  returns O.K. (0268ms, 0539ms total)
T0AC4 000:544 JLINK_SetErrorOutHandler(...) (0000ms, 0539ms total)
T0AC4 000:544 JLINK_ExecCommand("ProjectFile = "C:\Users\Михеенко Е\Desktop\Gsa_RM02_2 - копия\MDK-ARM\JLinkSettings.ini"", ...)  returns 0x00 (0000ms, 0539ms total)
T0AC4 000:544 JLINK_ExecCommand("Device = STM32F100RB", ...)Device "STM32F100RB" selected.  returns 0x00 (0000ms, 0539ms total)
T0AC4 000:544 JLINK_ExecCommand("DisableConnectionTimeout", ...)  returns 0x01 (0000ms, 0539ms total)
T0AC4 000:544 JLINK_GetHardwareVersion()  returns 0x13880 (0000ms, 0539ms total)
T0AC4 000:544 JLINK_GetDLLVersion()  returns 50012 (0000ms, 0539ms total)
T0AC4 000:544 JLINK_GetFirmwareString(...) (0000ms, 0539ms total)
T0AC4 000:545 JLINK_GetDLLVersion()  returns 50012 (0000ms, 0539ms total)
T0AC4 000:545 JLINK_GetCompileDateTime() (0000ms, 0539ms total)
T0AC4 000:545 JLINK_GetFirmwareString(...) (0000ms, 0539ms total)
T0AC4 000:546 JLINK_GetHardwareVersion()  returns 0x13880 (0000ms, 0539ms total)
T0AC4 000:546 JLINK_TIF_Select(JLINKARM_TIF_SWD)  returns 0x00 (0004ms, 0543ms total)
T0AC4 000:550 JLINK_SetSpeed(500) (0001ms, 0544ms total)
T0AC4 000:551 JLINK_GetId() >0x108 TIF>Found SWD-DP with ID 0x1BA01477 >0x0D TIF> >0x28 TIF> >0x0D TIF> >0x28 TIF> >0x0D TIF> >0x21 TIF> >0x0D TIF> >0x28 TIF> >0x0D TIF> >0x28 TIF> >0x0D TIF> >0x28 TIF> >0x0D TIF> >0x21 TIF> >0x0D TIF> >0x21 TIF> >0x0D TIF> >0x28 TIF> >0x0D TIF> >0x21 TIF> >0x0D TIF> >0x21 TIF> >0x108 TIF>Found SWD-DP with ID 0x1BA01477 >0x0D TIF> >0x21 TIF> >0x0D TIF> >0x28 TIF> >0x0D TIF> >0x28 TIF> >0x0D TIF> >0x21 TIF> >0x0D TIF> >0x28 TIF> >0x0D TIF> >0x21 TIF> >0x0D TIF> >0x21 TIF>
 >0x0D TIF> >0x21 TIF> >0x0D TIF> >0x21 TIF> >0x0D TIF> >0x28 TIF> >0x0D TIF> >0x28 TIF> >0x0D TIF> >0x21 TIF> >0x0D TIF> >0x28 TIF> >0x0D TIF> >0x28 TIF> >0x0D TIF> >0x28 TIF> >0x0D TIF> >0x21 TIF> >0x0D TIF> >0x21 TIF> >0x0D TIF> >0x28 TIF> >0x0D TIF> >0x21 TIF> >0x0D TIF> >0x21 TIF>Found Cortex-M3 r1p1, Little endian. -- CPU_WriteMem(4 bytes @ 0xE0002000) -- CPU_ReadMem(4 bytes @ 0xE000EDF0) -- CPU_ReadMem(4 bytes @ 0xE0002000)FPUnit: 6 code (BP) slots and 2 literal slots
 -- CPU_ReadMem(4 bytes @ 0xE000EDFC) -- CPU_ReadMem(4 bytes @ 0xE0001000) -- CPU_WriteMem(4 bytes @ 0xE0001000) -- CPU_ReadMem(4 bytes @ 0xE000ED88) -- CPU_WriteMem(4 bytes @ 0xE000ED88) -- CPU_ReadMem(4 bytes @ 0xE000ED88) -- CPU_WriteMem(4 bytes @ 0xE000ED88)CoreSight components:ROMTbl 0 @ E00FF000 -- CPU_ReadMem(16 bytes @ 0xE00FF000) -- CPU_ReadMem(16 bytes @ 0xE000EFF0) -- CPU_ReadMem(16 bytes @ 0xE000EFE0)ROMTbl 0 [0]: FFF0F000, CID: B105E00D, PID: 001BB000 SCS
 -- CPU_ReadMem(16 bytes @ 0xE0001FF0) -- CPU_ReadMem(16 bytes @ 0xE0001FE0)ROMTbl 0 [1]: FFF02000, CID: B105E00D, PID: 001BB002 DWT -- CPU_ReadMem(16 bytes @ 0xE0002FF0) -- CPU_ReadMem(16 bytes @ 0xE0002FE0)ROMTbl 0 [2]: FFF03000, CID: B105E00D, PID: 000BB003 FPB -- CPU_ReadMem(16 bytes @ 0xE0000FF0) -- CPU_ReadMem(16 bytes @ 0xE0000FE0)ROMTbl 0 [3]: FFF01000, CID: B105E00D, PID: 001BB001 ITM -- CPU_ReadMem(16 bytes @ 0xE00FF010) -- CPU_ReadMem(16 bytes @ 0xE0040FF0)
 -- CPU_ReadMem(16 bytes @ 0xE0040FE0)ROMTbl 0 [4]: FFF41000, CID: B105900D, PID: 001BB923 TPIU-Lite >0x0D TIF> >0x21 TIF>  returns 0x1BA01477 (0106ms, 0650ms total)
T0AC4 000:657 JLINK_GetDeviceFamily()  returns 3 (0000ms, 0650ms total)
T0AC4 000:657 JLINK_ReadMem (0xE00FFFF0, 0x0010 Bytes, ...) -- CPU is running -- CPU_ReadMem(16 bytes @ 0xE00FFFF0) - Data: 0D 00 00 00 10 00 00 00 05 00 00 00 B1 00 00 00  returns 0x00 (0002ms, 0652ms total)
T0AC4 000:659 JLINK_ReadMem (0xE00FFFD0, 0x0020 Bytes, ...) -- CPU is running -- CPU_ReadMem(32 bytes @ 0xE00FFFD0) - Data: 00 00 00 00 00 00 00 00 00 00 00 00 00 00 00 00 ...  returns 0x00 (0002ms, 0654ms total)
T0AC4 000:661 JLINK_ReadMem (0xE00FF000, 0x0018 Bytes, ...) -- CPU is running -- CPU_ReadMem(24 bytes @ 0xE00FF000) - Data: 03 F0 F0 FF 03 20 F0 FF 03 30 F0 FF 03 10 F0 FF ...  returns 0x00 (0002ms, 0656ms total)
T0AC4 000:663 JLINK_ReadMemU32(0xE000ED00, 0x0001 Items, ...) -- CPU is running -- CPU_ReadMem(4 bytes @ 0xE000ED00) - Data: 31 C2 1F 41  returns 0x01 (0001ms, 0657ms total)
T0AC4 000:664 JLINK_SetResetType(JLINKARM_RESET_TYPE_NORMAL)  returns JLINKARM_RESET_TYPE_NORMAL (0000ms, 0657ms total)
T0AC4 000:664 JLINK_Reset() -- CPU is running -- CPU_WriteMem(4 bytes @ 0xE000EDF0) -- CPU is running -- CPU_WriteMem(4 bytes @ 0xE000EDFC) >0x35 TIF> -- CPU is running -- CPU_WriteMem(4 bytes @ 0xE000ED0C) -- CPU is running -- CPU_ReadMem(4 bytes @ 0xE000EDF0) -- CPU is running -- CPU_ReadMem(4 bytes @ 0xE000EDF0) -- CPU is running -- CPU_WriteMem(4 bytes @ 0xE000EDF0) -- CPU is running -- CPU_WriteMem(4 bytes @ 0xE000EDFC) -- CPU is running -- CPU_ReadMem(4 bytes @ 0xE000EDF0)
 -- CPU_WriteMem(4 bytes @ 0xE0002000) -- CPU_ReadMem(4 bytes @ 0xE000EDFC) -- CPU_ReadMem(4 bytes @ 0xE0001000) (0028ms, 0685ms total)
T0AC4 000:692 JLINK_ReadReg(R15 (PC))  returns 0x08000134 (0000ms, 0685ms total)
T0AC4 000:692 JLINK_ReadReg(XPSR)  returns 0x01000000 (0000ms, 0685ms total)
T0AC4 000:692 JLINK_Halt()  returns 0x00 (0000ms, 0685ms total)
T0AC4 000:692 JLINK_IsHalted()  returns TRUE (0000ms, 0685ms total)
T0AC4 000:692 JLINK_ReadMemU32(0xE000EDF0, 0x0001 Items, ...) -- CPU_ReadMem(4 bytes @ 0xE000EDF0) - Data: 03 00 03 00  returns 0x01 (0002ms, 0687ms total)
T0AC4 000:694 JLINK_WriteU32(0xE000EDF0, 0xA05F0003) -- CPU_WriteMem(4 bytes @ 0xE000EDF0)  returns 0x00 (0001ms, 0688ms total)
T0AC4 000:695 JLINK_WriteU32(0xE000EDFC, 0x01000000) -- CPU_WriteMem(4 bytes @ 0xE000EDFC)  returns 0x00 (0001ms, 0689ms total)
T0AC4 000:696 JLINK_GetHWStatus(...)  returns 0x00 (0001ms, 0690ms total)
T0AC4 000:697 JLINK_GetNumBPUnits(Type = 0xFFFFFF00)  returns 0x06 (0000ms, 0690ms total)
T0AC4 000:697 JLINK_GetNumBPUnits(Type = 0xF0)  returns 0x2000 (0000ms, 0690ms total)
T0AC4 000:697 JLINK_GetNumWPUnits()  returns 0x04 (0000ms, 0690ms total)
T0AC4 000:697 JLINK_GetSpeed()  returns 0x1F4 (0000ms, 0690ms total)
T0AC4 000:697 JLINK_ReadMemU32(0xE000E004, 0x0001 Items, ...) -- CPU_ReadMem(4 bytes @ 0xE000E004) - Data: 01 00 00 00  returns 0x01 (0002ms, 0692ms total)
T0AC4 000:699 JLINK_ReadMemU32(0xE000E004, 0x0001 Items, ...) -- CPU_ReadMem(4 bytes @ 0xE000E004) - Data: 01 00 00 00  returns 0x01 (0001ms, 0693ms total)
T0AC4 000:700 JLINK_WriteMem(0xE0001000, 0x001C Bytes, ...) - Data: 01 00 00 00 00 00 00 00 00 00 00 00 00 00 00 00 ... -- CPU_WriteMem(28 bytes @ 0xE0001000)  returns 0x1C (0002ms, 0695ms total)
T0AC4 000:702 JLINK_ReadMem (0xE0001000, 0x001C Bytes, ...) -- CPU_ReadMem(28 bytes @ 0xE0001000) - Data: 01 00 00 40 00 00 00 00 00 00 00 00 00 00 00 00 ...  returns 0x00 (0002ms, 0697ms total)
T0AC4 000:704 JLINK_ReadReg(R15 (PC))  returns 0x08000134 (0000ms, 0697ms total)
T0AC4 000:704 JLINK_ReadReg(XPSR)  returns 0x01000000 (0000ms, 0697ms total)
T0AC4 000:778 JLINK_SetResetType(JLINKARM_RESET_TYPE_NORMAL)  returns JLINKARM_RESET_TYPE_NORMAL (0000ms, 0697ms total)
T0AC4 000:778 JLINK_Reset() -- CPU_WriteMem(4 bytes @ 0xE000EDF0) -- CPU_WriteMem(4 bytes @ 0xE000EDFC) >0x35 TIF> -- CPU_WriteMem(4 bytes @ 0xE000ED0C) -- CPU_ReadMem(4 bytes @ 0xE000EDF0) -- CPU_ReadMem(4 bytes @ 0xE000EDF0) -- CPU_WriteMem(4 bytes @ 0xE000EDF0) -- CPU_WriteMem(4 bytes @ 0xE000EDFC) -- CPU is running -- CPU_ReadMem(4 bytes @ 0xE000EDF0) -- CPU_WriteMem(4 bytes @ 0xE0002000) -- CPU_ReadMem(4 bytes @ 0xE000EDFC) -- CPU_ReadMem(4 bytes @ 0xE0001000) (0029ms, 0726ms total)
T0AC4 000:807 JLINK_ReadReg(R15 (PC))  returns 0x08000134 (0000ms, 0726ms total)
T0AC4 000:807 JLINK_ReadReg(XPSR)  returns 0x01000000 (0000ms, 0726ms total)
T0AC4 000:807 JLINK_ReadMem (0x08000134, 0x003C Bytes, ...) -- CPU_ReadMem(128 bytes @ 0x08000100) -- Updating C cache (128 bytes @ 0x08000100) -- Read from C cache (60 bytes @ 0x08000134) - Data: 06 48 80 47 06 48 00 47 FE E7 FE E7 FE E7 FE E7 ...  returns 0x00 (0004ms, 0730ms total)
T0AC4 000:873 JLINK_ReadMem (0x40010800, 0x0018 Bytes, ...) -- CPU_ReadMem(24 bytes @ 0x40010800) - Data: 44 44 44 44 44 44 84 88 00 00 00 00 00 A0 00 00 ...  returns 0x00 (0001ms, 0731ms total)
T0AC4 000:874 JLINK_ReadMem (0x40010818, 0x0004 Bytes, ...) -- CPU_ReadMem(4 bytes @ 0x40010818) - Data: 00 00 00 00  returns 0x00 (0001ms, 0732ms total)
T0AC4 000:875 JLINK_ReadMem (0x40010800, 0x0004 Bytes, ...) -- CPU_ReadMem(4 bytes @ 0x40010800) - Data: 44 44 44 44  returns 0x00 (0001ms, 0733ms total)
T0AC4 000:876 JLINK_ReadMem (0x40010800, 0x0004 Bytes, ...) -- CPU_ReadMem(4 bytes @ 0x40010800) - Data: 44 44 44 44  returns 0x00 (0001ms, 0734ms total)
T0AC4 000:877 JLINK_ReadMem (0x40010800, 0x0004 Bytes, ...) -- CPU_ReadMem(4 bytes @ 0x40010800) - Data: 44 44 44 44  returns 0x00 (0001ms, 0735ms total)
T0AC4 000:878 JLINK_ReadMem (0x40010800, 0x0004 Bytes, ...) -- CPU_ReadMem(4 bytes @ 0x40010800) - Data: 44 44 44 44  returns 0x00 (0001ms, 0736ms total)
T0AC4 000:879 JLINK_ReadMem (0x40010800, 0x0004 Bytes, ...) -- CPU_ReadMem(4 bytes @ 0x40010800) - Data: 44 44 44 44  returns 0x00 (0001ms, 0737ms total)
T0AC4 000:880 JLINK_ReadMem (0x40010800, 0x0004 Bytes, ...) -- CPU_ReadMem(4 bytes @ 0x40010800) - Data: 44 44 44 44  returns 0x00 (0001ms, 0738ms total)
T0AC4 000:881 JLINK_ReadMem (0x40010800, 0x0004 Bytes, ...) -- CPU_ReadMem(4 bytes @ 0x40010800) - Data: 44 44 44 44  returns 0x00 (0001ms, 0739ms total)
T0AC4 000:882 JLINK_ReadMem (0x40010800, 0x0004 Bytes, ...) -- CPU_ReadMem(4 bytes @ 0x40010800) - Data: 44 44 44 44  returns 0x00 (0001ms, 0740ms total)
T0AC4 000:883 JLINK_ReadMem (0x40010800, 0x0004 Bytes, ...) -- CPU_ReadMem(4 bytes @ 0x40010800) - Data: 44 44 44 44  returns 0x00 (0001ms, 0741ms total)
T0AC4 000:884 JLINK_ReadMem (0x40010800, 0x0004 Bytes, ...) -- CPU_ReadMem(4 bytes @ 0x40010800) - Data: 44 44 44 44  returns 0x00 (0001ms, 0742ms total)
T0AC4 000:885 JLINK_ReadMem (0x40010800, 0x0004 Bytes, ...) -- CPU_ReadMem(4 bytes @ 0x40010800) - Data: 44 44 44 44  returns 0x00 (0001ms, 0743ms total)
T0AC4 000:886 JLINK_ReadMem (0x40010800, 0x0004 Bytes, ...) -- CPU_ReadMem(4 bytes @ 0x40010800) - Data: 44 44 44 44  returns 0x00 (0001ms, 0744ms total)
T0AC4 000:887 JLINK_ReadMem (0x40010800, 0x0004 Bytes, ...) -- CPU_ReadMem(4 bytes @ 0x40010800) - Data: 44 44 44 44  returns 0x00 (0001ms, 0745ms total)
T0AC4 000:888 JLINK_ReadMem (0x40010800, 0x0004 Bytes, ...) -- CPU_ReadMem(4 bytes @ 0x40010800) - Data: 44 44 44 44  returns 0x00 (0001ms, 0746ms total)
T0AC4 000:889 JLINK_ReadMem (0x40010800, 0x0004 Bytes, ...) -- CPU_ReadMem(4 bytes @ 0x40010800) - Data: 44 44 44 44  returns 0x00 (0001ms, 0747ms total)
T0AC4 000:890 JLINK_ReadMem (0x40010800, 0x0004 Bytes, ...) -- CPU_ReadMem(4 bytes @ 0x40010800) - Data: 44 44 44 44  returns 0x00 (0001ms, 0748ms total)
T0AC4 000:891 JLINK_ReadMem (0x40010800, 0x0004 Bytes, ...) -- CPU_ReadMem(4 bytes @ 0x40010800) - Data: 44 44 44 44  returns 0x00 (0001ms, 0749ms total)
T0AC4 000:892 JLINK_ReadMem (0x40010804, 0x0004 Bytes, ...) -- CPU_ReadMem(4 bytes @ 0x40010804) - Data: 44 44 84 88  returns 0x00 (0001ms, 0750ms total)
T0AC4 000:893 JLINK_ReadMem (0x40010804, 0x0004 Bytes, ...) -- CPU_ReadMem(4 bytes @ 0x40010804) - Data: 44 44 84 88  returns 0x00 (0001ms, 0751ms total)
T0AC4 000:894 JLINK_ReadMem (0x40010804, 0x0004 Bytes, ...) -- CPU_ReadMem(4 bytes @ 0x40010804) - Data: 44 44 84 88  returns 0x00 (0001ms, 0752ms total)
T0AC4 000:895 JLINK_ReadMem (0x40010804, 0x0004 Bytes, ...) -- CPU_ReadMem(4 bytes @ 0x40010804) - Data: 44 44 84 88  returns 0x00 (0001ms, 0753ms total)
T0AC4 000:896 JLINK_ReadMem (0x40010804, 0x0004 Bytes, ...) -- CPU_ReadMem(4 bytes @ 0x40010804) - Data: 44 44 84 88  returns 0x00 (0001ms, 0754ms total)
T0AC4 000:897 JLINK_ReadMem (0x40010804, 0x0004 Bytes, ...) -- CPU_ReadMem(4 bytes @ 0x40010804) - Data: 44 44 84 88  returns 0x00 (0001ms, 0755ms total)
T0AC4 000:898 JLINK_ReadMem (0x40010804, 0x0004 Bytes, ...) -- CPU_ReadMem(4 bytes @ 0x40010804) - Data: 44 44 84 88  returns 0x00 (0001ms, 0756ms total)
T0AC4 000:899 JLINK_ReadMem (0x40010804, 0x0004 Bytes, ...) -- CPU_ReadMem(4 bytes @ 0x40010804) - Data: 44 44 84 88  returns 0x00 (0001ms, 0757ms total)
T0AC4 000:900 JLINK_ReadMem (0x40010804, 0x0004 Bytes, ...) -- CPU_ReadMem(4 bytes @ 0x40010804) - Data: 44 44 84 88  returns 0x00 (0001ms, 0758ms total)
T0AC4 000:901 JLINK_ReadMem (0x40010804, 0x0004 Bytes, ...) -- CPU_ReadMem(4 bytes @ 0x40010804) - Data: 44 44 84 88  returns 0x00 (0001ms, 0759ms total)
T0AC4 000:902 JLINK_ReadMem (0x40010804, 0x0004 Bytes, ...) -- CPU_ReadMem(4 bytes @ 0x40010804) - Data: 44 44 84 88  returns 0x00 (0001ms, 0760ms total)
T0AC4 000:903 JLINK_ReadMem (0x40010804, 0x0004 Bytes, ...) -- CPU_ReadMem(4 bytes @ 0x40010804) - Data: 44 44 84 88  returns 0x00 (0001ms, 0761ms total)
T0AC4 000:904 JLINK_ReadMem (0x40010804, 0x0004 Bytes, ...) -- CPU_ReadMem(4 bytes @ 0x40010804) - Data: 44 44 84 88  returns 0x00 (0001ms, 0762ms total)
T0AC4 000:905 JLINK_ReadMem (0x40010804, 0x0004 Bytes, ...) -- CPU_ReadMem(4 bytes @ 0x40010804) - Data: 44 44 84 88  returns 0x00 (0001ms, 0763ms total)
T0AC4 000:906 JLINK_ReadMem (0x40010804, 0x0004 Bytes, ...) -- CPU_ReadMem(4 bytes @ 0x40010804) - Data: 44 44 84 88  returns 0x00 (0001ms, 0764ms total)
T0AC4 000:907 JLINK_ReadMem (0x40010804, 0x0004 Bytes, ...) -- CPU_ReadMem(4 bytes @ 0x40010804) - Data: 44 44 84 88  returns 0x00 (0001ms, 0765ms total)
T0AC4 000:908 JLINK_ReadMem (0x40010804, 0x0004 Bytes, ...) -- CPU_ReadMem(4 bytes @ 0x40010804) - Data: 44 44 84 88  returns 0x00 (0001ms, 0766ms total)
T0AC4 000:909 JLINK_ReadMem (0x4001080C, 0x0004 Bytes, ...) -- CPU_ReadMem(4 bytes @ 0x4001080C) - Data: 00 A0 00 00  returns 0x00 (0001ms, 0767ms total)
T0AC4 000:910 JLINK_ReadMem (0x4001080C, 0x0004 Bytes, ...) -- CPU_ReadMem(4 bytes @ 0x4001080C) - Data: 00 A0 00 00  returns 0x00 (0001ms, 0768ms total)
T0AC4 000:911 JLINK_ReadMem (0x4001080C, 0x0004 Bytes, ...) -- CPU_ReadMem(4 bytes @ 0x4001080C) - Data: 00 A0 00 00  returns 0x00 (0001ms, 0769ms total)
T0AC4 000:912 JLINK_ReadMem (0x4001080C, 0x0004 Bytes, ...) -- CPU_ReadMem(4 bytes @ 0x4001080C) - Data: 00 A0 00 00  returns 0x00 (0001ms, 0770ms total)
T0AC4 000:913 JLINK_ReadMem (0x4001080C, 0x0004 Bytes, ...) -- CPU_ReadMem(4 bytes @ 0x4001080C) - Data: 00 A0 00 00  returns 0x00 (0001ms, 0771ms total)
T0AC4 000:914 JLINK_ReadMem (0x4001080C, 0x0004 Bytes, ...) -- CPU_ReadMem(4 bytes @ 0x4001080C) - Data: 00 A0 00 00  returns 0x00 (0001ms, 0772ms total)
T0AC4 000:915 JLINK_ReadMem (0x4001080C, 0x0004 Bytes, ...) -- CPU_ReadMem(4 bytes @ 0x4001080C) - Data: 00 A0 00 00  returns 0x00 (0001ms, 0773ms total)
T0AC4 000:916 JLINK_ReadMem (0x4001080C, 0x0004 Bytes, ...) -- CPU_ReadMem(4 bytes @ 0x4001080C) - Data: 00 A0 00 00  returns 0x00 (0001ms, 0774ms total)
T0AC4 000:917 JLINK_ReadMem (0x4001080C, 0x0004 Bytes, ...) -- CPU_ReadMem(4 bytes @ 0x4001080C) - Data: 00 A0 00 00  returns 0x00 (0001ms, 0775ms total)
T0AC4 000:918 JLINK_ReadMem (0x4001080C, 0x0004 Bytes, ...) -- CPU_ReadMem(4 bytes @ 0x4001080C) - Data: 00 A0 00 00  returns 0x00 (0001ms, 0776ms total)
T0AC4 000:919 JLINK_ReadMem (0x4001080C, 0x0004 Bytes, ...) -- CPU_ReadMem(4 bytes @ 0x4001080C) - Data: 00 A0 00 00  returns 0x00 (0001ms, 0777ms total)
T0AC4 000:920 JLINK_ReadMem (0x4001080C, 0x0004 Bytes, ...) -- CPU_ReadMem(4 bytes @ 0x4001080C) - Data: 00 A0 00 00  returns 0x00 (0001ms, 0778ms total)
T0AC4 000:921 JLINK_ReadMem (0x4001080C, 0x0004 Bytes, ...) -- CPU_ReadMem(4 bytes @ 0x4001080C) - Data: 00 A0 00 00  returns 0x00 (0001ms, 0779ms total)
T0AC4 000:922 JLINK_ReadMem (0x4001080C, 0x0004 Bytes, ...) -- CPU_ReadMem(4 bytes @ 0x4001080C) - Data: 00 A0 00 00  returns 0x00 (0001ms, 0780ms total)
T0AC4 000:923 JLINK_ReadMem (0x4001080C, 0x0004 Bytes, ...) -- CPU_ReadMem(4 bytes @ 0x4001080C) - Data: 00 A0 00 00  returns 0x00 (0001ms, 0781ms total)
T0AC4 000:924 JLINK_ReadMem (0x4001080C, 0x0004 Bytes, ...) -- CPU_ReadMem(4 bytes @ 0x4001080C) - Data: 00 A0 00 00  returns 0x00 (0001ms, 0782ms total)
T0AC4 000:925 JLINK_ReadMem (0x4001080C, 0x0004 Bytes, ...) -- CPU_ReadMem(4 bytes @ 0x4001080C) - Data: 00 A0 00 00  returns 0x00 (0001ms, 0783ms total)
T0AC4 000:940 JLINK_ReadMem (0x40010C00, 0x0018 Bytes, ...) -- CPU_ReadMem(24 bytes @ 0x40010C00) - Data: 44 44 48 44 44 44 44 44 00 00 00 00 10 00 00 00 ...  returns 0x00 (0002ms, 0785ms total)
T0AC4 000:942 JLINK_ReadMem (0x40010C18, 0x0004 Bytes, ...) -- CPU_ReadMem(4 bytes @ 0x40010C18) - Data: 00 00 00 00  returns 0x00 (0001ms, 0786ms total)
T0AC4 000:943 JLINK_ReadMem (0x40010C00, 0x0004 Bytes, ...) -- CPU_ReadMem(4 bytes @ 0x40010C00) - Data: 44 44 48 44  returns 0x00 (0001ms, 0787ms total)
T0AC4 000:944 JLINK_ReadMem (0x40010C00, 0x0004 Bytes, ...) -- CPU_ReadMem(4 bytes @ 0x40010C00) - Data: 44 44 48 44  returns 0x00 (0001ms, 0788ms total)
T0AC4 000:945 JLINK_ReadMem (0x40010C00, 0x0004 Bytes, ...) -- CPU_ReadMem(4 bytes @ 0x40010C00) - Data: 44 44 48 44  returns 0x00 (0001ms, 0789ms total)
T0AC4 000:946 JLINK_ReadMem (0x40010C00, 0x0004 Bytes, ...) -- CPU_ReadMem(4 bytes @ 0x40010C00) - Data: 44 44 48 44  returns 0x00 (0001ms, 0790ms total)
T0AC4 000:947 JLINK_ReadMem (0x40010C00, 0x0004 Bytes, ...) -- CPU_ReadMem(4 bytes @ 0x40010C00) - Data: 44 44 48 44  returns 0x00 (0001ms, 0791ms total)
T0AC4 000:948 JLINK_ReadMem (0x40010C00, 0x0004 Bytes, ...) -- CPU_ReadMem(4 bytes @ 0x40010C00) - Data: 44 44 48 44  returns 0x00 (0001ms, 0792ms total)
T0AC4 000:949 JLINK_ReadMem (0x40010C00, 0x0004 Bytes, ...) -- CPU_ReadMem(4 bytes @ 0x40010C00) - Data: 44 44 48 44  returns 0x00 (0001ms, 0793ms total)
T0AC4 000:950 JLINK_ReadMem (0x40010C00, 0x0004 Bytes, ...) -- CPU_ReadMem(4 bytes @ 0x40010C00) - Data: 44 44 48 44  returns 0x00 (0001ms, 0794ms total)
T0AC4 000:951 JLINK_ReadMem (0x40010C00, 0x0004 Bytes, ...) -- CPU_ReadMem(4 bytes @ 0x40010C00) - Data: 44 44 48 44  returns 0x00 (0001ms, 0795ms total)
T0AC4 000:952 JLINK_ReadMem (0x40010C00, 0x0004 Bytes, ...) -- CPU_ReadMem(4 bytes @ 0x40010C00) - Data: 44 44 48 44  returns 0x00 (0001ms, 0796ms total)
T0AC4 000:953 JLINK_ReadMem (0x40010C00, 0x0004 Bytes, ...) -- CPU_ReadMem(4 bytes @ 0x40010C00) - Data: 44 44 48 44  returns 0x00 (0001ms, 0797ms total)
T0AC4 000:954 JLINK_ReadMem (0x40010C00, 0x0004 Bytes, ...) -- CPU_ReadMem(4 bytes @ 0x40010C00) - Data: 44 44 48 44  returns 0x00 (0001ms, 0798ms total)
T0AC4 000:955 JLINK_ReadMem (0x40010C00, 0x0004 Bytes, ...) -- CPU_ReadMem(4 bytes @ 0x40010C00) - Data: 44 44 48 44  returns 0x00 (0001ms, 0799ms total)
T0AC4 000:956 JLINK_ReadMem (0x40010C00, 0x0004 Bytes, ...) -- CPU_ReadMem(4 bytes @ 0x40010C00) - Data: 44 44 48 44  returns 0x00 (0001ms, 0800ms total)
T0AC4 000:957 JLINK_ReadMem (0x40010C00, 0x0004 Bytes, ...) -- CPU_ReadMem(4 bytes @ 0x40010C00) - Data: 44 44 48 44  returns 0x00 (0001ms, 0801ms total)
T0AC4 000:958 JLINK_ReadMem (0x40010C00, 0x0004 Bytes, ...) -- CPU_ReadMem(4 bytes @ 0x40010C00) - Data: 44 44 48 44  returns 0x00 (0001ms, 0802ms total)
T0AC4 000:959 JLINK_ReadMem (0x40010C00, 0x0004 Bytes, ...) -- CPU_ReadMem(4 bytes @ 0x40010C00) - Data: 44 44 48 44  returns 0x00 (0001ms, 0803ms total)
T0AC4 000:960 JLINK_ReadMem (0x40010C04, 0x0004 Bytes, ...) -- CPU_ReadMem(4 bytes @ 0x40010C04) - Data: 44 44 44 44  returns 0x00 (0001ms, 0804ms total)
T0AC4 000:961 JLINK_ReadMem (0x40010C04, 0x0004 Bytes, ...) -- CPU_ReadMem(4 bytes @ 0x40010C04) - Data: 44 44 44 44  returns 0x00 (0001ms, 0805ms total)
T0AC4 000:962 JLINK_ReadMem (0x40010C04, 0x0004 Bytes, ...) -- CPU_ReadMem(4 bytes @ 0x40010C04) - Data: 44 44 44 44  returns 0x00 (0001ms, 0806ms total)
T0AC4 000:963 JLINK_ReadMem (0x40010C04, 0x0004 Bytes, ...) -- CPU_ReadMem(4 bytes @ 0x40010C04) - Data: 44 44 44 44  returns 0x00 (0001ms, 0807ms total)
T0AC4 000:964 JLINK_ReadMem (0x40010C04, 0x0004 Bytes, ...) -- CPU_ReadMem(4 bytes @ 0x40010C04) - Data: 44 44 44 44  returns 0x00 (0001ms, 0808ms total)
T0AC4 000:965 JLINK_ReadMem (0x40010C04, 0x0004 Bytes, ...) -- CPU_ReadMem(4 bytes @ 0x40010C04) - Data: 44 44 44 44  returns 0x00 (0001ms, 0809ms total)
T0AC4 000:966 JLINK_ReadMem (0x40010C04, 0x0004 Bytes, ...) -- CPU_ReadMem(4 bytes @ 0x40010C04) - Data: 44 44 44 44  returns 0x00 (0001ms, 0810ms total)
T0AC4 000:967 JLINK_ReadMem (0x40010C04, 0x0004 Bytes, ...) -- CPU_ReadMem(4 bytes @ 0x40010C04) - Data: 44 44 44 44  returns 0x00 (0001ms, 0811ms total)
T0AC4 000:968 JLINK_ReadMem (0x40010C04, 0x0004 Bytes, ...) -- CPU_ReadMem(4 bytes @ 0x40010C04) - Data: 44 44 44 44  returns 0x00 (0001ms, 0812ms total)
T0AC4 000:969 JLINK_ReadMem (0x40010C04, 0x0004 Bytes, ...) -- CPU_ReadMem(4 bytes @ 0x40010C04) - Data: 44 44 44 44  returns 0x00 (0001ms, 0813ms total)
T0AC4 000:970 JLINK_ReadMem (0x40010C04, 0x0004 Bytes, ...) -- CPU_ReadMem(4 bytes @ 0x40010C04) - Data: 44 44 44 44  returns 0x00 (0001ms, 0814ms total)
T0AC4 000:971 JLINK_ReadMem (0x40010C04, 0x0004 Bytes, ...) -- CPU_ReadMem(4 bytes @ 0x40010C04) - Data: 44 44 44 44  returns 0x00 (0001ms, 0815ms total)
T0AC4 000:972 JLINK_ReadMem (0x40010C04, 0x0004 Bytes, ...) -- CPU_ReadMem(4 bytes @ 0x40010C04) - Data: 44 44 44 44  returns 0x00 (0001ms, 0816ms total)
T0AC4 000:973 JLINK_ReadMem (0x40010C04, 0x0004 Bytes, ...) -- CPU_ReadMem(4 bytes @ 0x40010C04) - Data: 44 44 44 44  returns 0x00 (0001ms, 0817ms total)
T0AC4 000:974 JLINK_ReadMem (0x40010C04, 0x0004 Bytes, ...) -- CPU_ReadMem(4 bytes @ 0x40010C04) - Data: 44 44 44 44  returns 0x00 (0001ms, 0818ms total)
T0AC4 000:975 JLINK_ReadMem (0x40010C04, 0x0004 Bytes, ...) -- CPU_ReadMem(4 bytes @ 0x40010C04) - Data: 44 44 44 44  returns 0x00 (0001ms, 0819ms total)
T0AC4 000:976 JLINK_ReadMem (0x40010C04, 0x0004 Bytes, ...) -- CPU_ReadMem(4 bytes @ 0x40010C04) - Data: 44 44 44 44  returns 0x00 (0001ms, 0820ms total)
T0AC4 000:977 JLINK_ReadMem (0x40010C0C, 0x0004 Bytes, ...) -- CPU_ReadMem(4 bytes @ 0x40010C0C) - Data: 10 00 00 00  returns 0x00 (0001ms, 0821ms total)
T0AC4 000:978 JLINK_ReadMem (0x40010C0C, 0x0004 Bytes, ...) -- CPU_ReadMem(4 bytes @ 0x40010C0C) - Data: 10 00 00 00  returns 0x00 (0001ms, 0822ms total)
T0AC4 000:979 JLINK_ReadMem (0x40010C0C, 0x0004 Bytes, ...) -- CPU_ReadMem(4 bytes @ 0x40010C0C) - Data: 10 00 00 00  returns 0x00 (0001ms, 0823ms total)
T0AC4 000:980 JLINK_ReadMem (0x40010C0C, 0x0004 Bytes, ...) -- CPU_ReadMem(4 bytes @ 0x40010C0C) - Data: 10 00 00 00  returns 0x00 (0001ms, 0824ms total)
T0AC4 000:981 JLINK_ReadMem (0x40010C0C, 0x0004 Bytes, ...) -- CPU_ReadMem(4 bytes @ 0x40010C0C) - Data: 10 00 00 00  returns 0x00 (0001ms, 0825ms total)
T0AC4 000:982 JLINK_ReadMem (0x40010C0C, 0x0004 Bytes, ...) -- CPU_ReadMem(4 bytes @ 0x40010C0C) - Data: 10 00 00 00  returns 0x00 (0001ms, 0826ms total)
T0AC4 000:983 JLINK_ReadMem (0x40010C0C, 0x0004 Bytes, ...) -- CPU_ReadMem(4 bytes @ 0x40010C0C) - Data: 10 00 00 00  returns 0x00 (0001ms, 0827ms total)
T0AC4 000:984 JLINK_ReadMem (0x40010C0C, 0x0004 Bytes, ...) -- CPU_ReadMem(4 bytes @ 0x40010C0C) - Data: 10 00 00 00  returns 0x00 (0001ms, 0828ms total)
T0AC4 000:985 JLINK_ReadMem (0x40010C0C, 0x0004 Bytes, ...) -- CPU_ReadMem(4 bytes @ 0x40010C0C) - Data: 10 00 00 00  returns 0x00 (0001ms, 0829ms total)
T0AC4 000:986 JLINK_ReadMem (0x40010C0C, 0x0004 Bytes, ...) -- CPU_ReadMem(4 bytes @ 0x40010C0C) - Data: 10 00 00 00  returns 0x00 (0001ms, 0830ms total)
T0AC4 000:987 JLINK_ReadMem (0x40010C0C, 0x0004 Bytes, ...) -- CPU_ReadMem(4 bytes @ 0x40010C0C) - Data: 10 00 00 00  returns 0x00 (0001ms, 0831ms total)
T0AC4 000:988 JLINK_ReadMem (0x40010C0C, 0x0004 Bytes, ...) -- CPU_ReadMem(4 bytes @ 0x40010C0C) - Data: 10 00 00 00  returns 0x00 (0001ms, 0832ms total)
T0AC4 000:989 JLINK_ReadMem (0x40010C0C, 0x0004 Bytes, ...) -- CPU_ReadMem(4 bytes @ 0x40010C0C) - Data: 10 00 00 00  returns 0x00 (0001ms, 0833ms total)
T0AC4 000:990 JLINK_ReadMem (0x40010C0C, 0x0004 Bytes, ...) -- CPU_ReadMem(4 bytes @ 0x40010C0C) - Data: 10 00 00 00  returns 0x00 (0001ms, 0834ms total)
T0AC4 000:991 JLINK_ReadMem (0x40010C0C, 0x0004 Bytes, ...) -- CPU_ReadMem(4 bytes @ 0x40010C0C) - Data: 10 00 00 00  returns 0x00 (0001ms, 0835ms total)
T0AC4 000:992 JLINK_ReadMem (0x40010C0C, 0x0004 Bytes, ...) -- CPU_ReadMem(4 bytes @ 0x40010C0C) - Data: 10 00 00 00  returns 0x00 (0001ms, 0836ms total)
T0AC4 000:993 JLINK_ReadMem (0x40010C0C, 0x0004 Bytes, ...) -- CPU_ReadMem(4 bytes @ 0x40010C0C) - Data: 10 00 00 00  returns 0x00 (0001ms, 0837ms total)
T0AC4 001:008 JLINK_ReadMem (0x40000400, 0x002C Bytes, ...) -- CPU_ReadMem(44 bytes @ 0x40000400) - Data: 00 00 00 00 00 00 00 00 00 00 00 00 00 00 00 00 ...  returns 0x00 (0004ms, 0841ms total)
T0AC4 001:012 JLINK_ReadMem (0x4000042C, 0x0004 Bytes, ...) -- CPU_ReadMem(4 bytes @ 0x4000042C) - Data: 00 00 00 00  returns 0x00 (0001ms, 0842ms total)
T0AC4 001:013 JLINK_ReadMem (0x40000434, 0x000C Bytes, ...) -- CPU_ReadMem(12 bytes @ 0x40000434) - Data: 00 00 00 00 00 00 00 00 00 00 00 00  returns 0x00 (0002ms, 0844ms total)
T0AC4 001:015 JLINK_ReadMem (0x40000440, 0x0004 Bytes, ...) -- CPU_ReadMem(4 bytes @ 0x40000440) - Data: 00 00 00 00  returns 0x00 (0001ms, 0845ms total)
T0AC4 001:016 JLINK_ReadMem (0x40000448, 0x0004 Bytes, ...) -- CPU_ReadMem(4 bytes @ 0x40000448) - Data: 00 00 00 00  returns 0x00 (0001ms, 0846ms total)
T0AC4 001:017 JLINK_ReadMem (0x4000044C, 0x0004 Bytes, ...) -- CPU_ReadMem(4 bytes @ 0x4000044C) - Data: 00 00 00 00  returns 0x00 (0001ms, 0847ms total)
T0AC4 001:033 JLINK_ReadMem (0x40000800, 0x002C Bytes, ...) -- CPU_ReadMem(44 bytes @ 0x40000800) - Data: 00 00 00 00 00 00 00 00 00 00 00 00 00 00 00 00 ...  returns 0x00 (0002ms, 0849ms total)
T0AC4 001:035 JLINK_ReadMem (0x4000082C, 0x0004 Bytes, ...) -- CPU_ReadMem(4 bytes @ 0x4000082C) - Data: 00 00 00 00  returns 0x00 (0001ms, 0850ms total)
T0AC4 001:036 JLINK_ReadMem (0x40000834, 0x000C Bytes, ...) -- CPU_ReadMem(12 bytes @ 0x40000834) - Data: 00 00 00 00 00 00 00 00 00 00 00 00  returns 0x00 (0002ms, 0852ms total)
T0AC4 001:038 JLINK_ReadMem (0x40000840, 0x0004 Bytes, ...) -- CPU_ReadMem(4 bytes @ 0x40000840) - Data: 00 00 00 00  returns 0x00 (0001ms, 0853ms total)
T0AC4 001:039 JLINK_ReadMem (0x40000848, 0x0004 Bytes, ...) -- CPU_ReadMem(4 bytes @ 0x40000848) - Data: 00 00 00 00  returns 0x00 (0001ms, 0854ms total)
T0AC4 001:040 JLINK_ReadMem (0x4000084C, 0x0004 Bytes, ...) -- CPU_ReadMem(4 bytes @ 0x4000084C) - Data: 00 00 00 00  returns 0x00 (0001ms, 0855ms total)
T0AC4 001:701 JLINK_ReadMem (0x20000060, 0x0004 Bytes, ...) -- CPU_ReadMem(64 bytes @ 0x20000040) -- Updating C cache (64 bytes @ 0x20000040) -- Read from C cache (4 bytes @ 0x20000060) - Data: 40 F6 FF 70  returns 0x00 (0002ms, 0857ms total)
T0AC4 001:707 JLINK_ReadMem (0x20000010, 0x0004 Bytes, ...) -- CPU_ReadMem(64 bytes @ 0x20000000) -- Updating C cache (64 bytes @ 0x20000000) -- Read from C cache (4 bytes @ 0x20000010) - Data: 58 40 64 1E  returns 0x00 (0002ms, 0859ms total)
T0AC4 001:713 JLINK_ReadMem (0x20000218, 0x0019 Bytes, ...) -- CPU_ReadMem(64 bytes @ 0x20000200) -- Updating C cache (64 bytes @ 0x20000200) -- Read from C cache (25 bytes @ 0x20000218) - Data: 6C 00 00 00 7C 3F 00 08 38 69 00 08 6C 00 00 20 ...  returns 0x00 (0002ms, 0861ms total)
T0AC4 001:719 JLINK_ReadMem (0x20000231, 0x000A Bytes, ...) -- Read from C cache (10 bytes @ 0x20000231) - Data: 01 00 00 01 00 00 00 01 00 00  returns 0x00 (0000ms, 0861ms total)
T0AC4 001:734 JLINK_ReadMem (0x20000020, 0x0004 Bytes, ...) -- Read from C cache (4 bytes @ 0x20000020) - Data: 05 E0 03 78  returns 0x00 (0000ms, 0861ms total)
T0AC4 001:750 JLINK_ReadMem (0x20000030, 0x0001 Bytes, ...) -- Read from C cache (1 bytes @ 0x20000030) - Data: F7  returns 0x00 (0000ms, 0861ms total)
T0AC4 001:754 JLINK_ReadMem (0x20000031, 0x0001 Bytes, ...) -- Read from C cache (1 bytes @ 0x20000031) - Data: D2  returns 0x00 (0000ms, 0861ms total)
T0AC4 001:759 JLINK_ReadMem (0x20000032, 0x0001 Bytes, ...) -- Read from C cache (1 bytes @ 0x20000032) - Data: 00  returns 0x00 (0000ms, 0861ms total)
T0AC4 001:763 JLINK_ReadMem (0x20000000, 0x0001 Bytes, ...) -- Read from C cache (1 bytes @ 0x20000000) - Data: 00  returns 0x00 (0001ms, 0862ms total)
T1C20 001:791 JLINK_SetBPEx(Addr = 0x08004B14, Type = 0xFFFFFFF2)  returns 0x00000001 (0000ms, 0862ms total)
T1C20 001:791 JLINK_Go() -- CPU_WriteMem(4 bytes @ 0xE0002000) -- CPU_ReadMem(4 bytes @ 0xE0001000) -- CPU_WriteMem(4 bytes @ 0xE0002008) -- CPU_WriteMem(4 bytes @ 0xE000200C) -- CPU_WriteMem(4 bytes @ 0xE0002010) -- CPU_WriteMem(4 bytes @ 0xE0002014) -- CPU_WriteMem(4 bytes @ 0xE0002018) -- CPU_WriteMem(4 bytes @ 0xE000201C) -- CPU_WriteMem(4 bytes @ 0xE0001004) (0012ms, 0874ms total)
T1C20 001:903 JLINK_IsHalted()  returns TRUE (0008ms, 0882ms total)
T1C20 001:911 JLINK_Halt()  returns 0x00 (0000ms, 0874ms total)
T1C20 001:911 JLINK_IsHalted()  returns TRUE (0000ms, 0874ms total)
T1C20 001:911 JLINK_IsHalted()  returns TRUE (0000ms, 0874ms total)
T1C20 001:911 JLINK_IsHalted()  returns TRUE (0000ms, 0874ms total)
T1C20 001:911 JLINK_ReadReg(R15 (PC))  returns 0x08004B14 (0000ms, 0874ms total)
T1C20 001:911 JLINK_ReadReg(XPSR)  returns 0x61000000 (0000ms, 0874ms total)
T1C20 001:911 JLINK_ClrBPEx(BPHandle = 0x00000001)  returns 0x00 (0000ms, 0874ms total)
T1C20 001:911 JLINK_ReadMemU32(0xE000ED30, 0x0001 Items, ...) -- CPU_ReadMem(4 bytes @ 0xE000ED30) - Data: 03 00 00 00  returns 0x01 (0002ms, 0876ms total)
T1C20 001:913 JLINK_ReadMemU32(0xE0001028, 0x0001 Items, ...) -- CPU_ReadMem(4 bytes @ 0xE0001028) - Data: 00 00 00 00  returns 0x01 (0001ms, 0877ms total)
T1C20 001:914 JLINK_ReadMemU32(0xE0001038, 0x0001 Items, ...) -- CPU_ReadMem(4 bytes @ 0xE0001038) - Data: 00 02 00 00  returns 0x01 (0001ms, 0878ms total)
T1C20 001:915 JLINK_ReadMemU32(0xE0001048, 0x0001 Items, ...) -- CPU_ReadMem(4 bytes @ 0xE0001048) - Data: 00 00 00 00  returns 0x01 (0001ms, 0879ms total)
T1C20 001:916 JLINK_ReadMemU32(0xE0001058, 0x0001 Items, ...) -- CPU_ReadMem(4 bytes @ 0xE0001058) - Data: 00 00 00 00  returns 0x01 (0001ms, 0880ms total)
T1C20 001:917 JLINK_ReadReg(R0)  returns 0x08004B15 (0000ms, 0880ms total)
T1C20 001:917 JLINK_ReadReg(R1)  returns 0x20000F00 (0000ms, 0880ms total)
T1C20 001:917 JLINK_ReadReg(R2)  returns 0x00000000 (0000ms, 0880ms total)
T1C20 001:917 JLINK_ReadReg(R3)  returns 0x08003F8D (0000ms, 0880ms total)
T1C20 001:917 JLINK_ReadReg(R4)  returns 0x080068CC (0000ms, 0880ms total)
T1C20 001:917 JLINK_ReadReg(R5)  returns 0x080068CC (0000ms, 0880ms total)
T1C20 001:917 JLINK_ReadReg(R6)  returns 0x00000000 (0000ms, 0880ms total)
T1C20 001:917 JLINK_ReadReg(R7)  returns 0x00000000 (0000ms, 0880ms total)
T1C20 001:917 JLINK_ReadReg(R8)  returns 0x00000000 (0000ms, 0880ms total)
T1C20 001:917 JLINK_ReadReg(R9)  returns 0x20000160 (0000ms, 0880ms total)
T1C20 001:917 JLINK_ReadReg(R10)  returns 0x00000000 (0000ms, 0880ms total)
T1C20 001:917 JLINK_ReadReg(R11)  returns 0x00000000 (0000ms, 0880ms total)
T1C20 001:917 JLINK_ReadReg(R12)  returns 0x00000000 (0000ms, 0880ms total)
T1C20 001:917 JLINK_ReadReg(R13 (SP))  returns 0x20000F00 (0000ms, 0880ms total)
T1C20 001:917 JLINK_ReadReg(R14)  returns 0x0800085D (0000ms, 0880ms total)
T1C20 001:917 JLINK_ReadReg(R15 (PC))  returns 0x08004B14 (0000ms, 0880ms total)
T1C20 001:917 JLINK_ReadReg(XPSR)  returns 0x61000000 (0000ms, 0880ms total)
T1C20 001:917 JLINK_ReadReg(MSP)  returns 0x20000F00 (0000ms, 0880ms total)
T1C20 001:917 JLINK_ReadReg(PSP)  returns 0x20000800 (0000ms, 0880ms total)
T1C20 001:917 JLINK_ReadReg(CFBP)  returns 0x00000000 (0000ms, 0880ms total)
T0AC4 001:918 JLINK_ReadMem (0x00000000, 0x0001 Bytes, ...) -- CPU_ReadMem(4 bytes @ 0x00000004) -- CPU_ReadMem(64 bytes @ 0x08000000) -- Updating C cache (64 bytes @ 0x08000000) -- Read from C cache (1 bytes @ 0x08000000) - Data: 00  returns 0x00 (0004ms, 0884ms total)
T0AC4 001:922 JLINK_ReadMem (0x00000000, 0x0004 Bytes, ...) -- Read from C cache (4 bytes @ 0x08000000) - Data: 00 0F 00 20  returns 0x00 (0000ms, 0884ms total)
T0AC4 001:922 JLINK_ReadMem (0x20000EE0, 0x0020 Bytes, ...) -- CPU_ReadMem(64 bytes @ 0x20000EC0) -- Updating C cache (64 bytes @ 0x20000EC0) -- Read from C cache (32 bytes @ 0x20000EE0) - Data: 00 00 00 00 00 00 00 00 00 00 00 00 00 00 00 00 ...  returns 0x00 (0003ms, 0887ms total)
T0AC4 001:930 JLINK_ReadMem (0x20000060, 0x0004 Bytes, ...) -- CPU_ReadMem(64 bytes @ 0x20000040) -- Updating C cache (64 bytes @ 0x20000040) -- Read from C cache (4 bytes @ 0x20000060) - Data: 00 36 6E 01  returns 0x00 (0002ms, 0889ms total)
T0AC4 001:932 JLINK_ReadMem (0x20000010, 0x0004 Bytes, ...) -- CPU_ReadMem(64 bytes @ 0x20000000) -- Updating C cache (64 bytes @ 0x20000000) -- Read from C cache (4 bytes @ 0x20000010) - Data: 00 00 00 00  returns 0x00 (0003ms, 0892ms total)
T0AC4 001:935 JLINK_ReadMem (0x20000218, 0x0019 Bytes, ...) -- CPU_ReadMem(64 bytes @ 0x20000200) -- Updating C cache (64 bytes @ 0x20000200) -- Read from C cache (25 bytes @ 0x20000218) - Data: 00 00 00 00 00 00 00 00 00 00 00 00 00 00 00 00 ...  returns 0x00 (0002ms, 0894ms total)
T0AC4 001:938 JLINK_ReadMem (0x20000231, 0x000A Bytes, ...) -- Read from C cache (10 bytes @ 0x20000231) - Data: 00 00 00 00 00 00 00 00 00 00  returns 0x00 (0000ms, 0894ms total)
T0AC4 001:938 JLINK_ReadMem (0x20000020, 0x0004 Bytes, ...) -- Read from C cache (4 bytes @ 0x20000020) - Data: 00 00 00 00  returns 0x00 (0000ms, 0894ms total)
T0AC4 001:939 JLINK_ReadMem (0x20000030, 0x0001 Bytes, ...) -- Read from C cache (1 bytes @ 0x20000030) - Data: 00  returns 0x00 (0000ms, 0894ms total)
T0AC4 001:939 JLINK_ReadMem (0x20000031, 0x0001 Bytes, ...) -- Read from C cache (1 bytes @ 0x20000031) - Data: 00  returns 0x00 (0000ms, 0894ms total)
T0AC4 001:939 JLINK_ReadMem (0x20000032, 0x0001 Bytes, ...) -- Read from C cache (1 bytes @ 0x20000032) - Data: 00  returns 0x00 (0000ms, 0894ms total)
T0AC4 001:939 JLINK_ReadMem (0x20000000, 0x0001 Bytes, ...) -- Read from C cache (1 bytes @ 0x20000000) - Data: 01  returns 0x00 (0000ms, 0894ms total)
T0AC4 001:939 JLINK_ReadMem (0x40000400, 0x002C Bytes, ...) -- CPU_ReadMem(44 bytes @ 0x40000400) - Data: 00 00 00 00 00 00 00 00 00 00 00 00 00 00 00 00 ...  returns 0x00 (0002ms, 0896ms total)
T0AC4 001:941 JLINK_ReadMem (0x4000042C, 0x0004 Bytes, ...) -- CPU_ReadMem(4 bytes @ 0x4000042C) - Data: 00 00 00 00  returns 0x00 (0001ms, 0897ms total)
T0AC4 001:942 JLINK_ReadMem (0x40000434, 0x000C Bytes, ...) -- CPU_ReadMem(12 bytes @ 0x40000434) - Data: 00 00 00 00 00 00 00 00 00 00 00 00  returns 0x00 (0002ms, 0899ms total)
T0AC4 001:944 JLINK_ReadMem (0x40000440, 0x0004 Bytes, ...) -- CPU_ReadMem(4 bytes @ 0x40000440) - Data: 00 00 00 00  returns 0x00 (0001ms, 0900ms total)
T0AC4 001:945 JLINK_ReadMem (0x40000448, 0x0004 Bytes, ...) -- CPU_ReadMem(4 bytes @ 0x40000448) - Data: 00 00 00 00  returns 0x00 (0001ms, 0901ms total)
T0AC4 001:946 JLINK_ReadMem (0x4000044C, 0x0004 Bytes, ...) -- CPU_ReadMem(4 bytes @ 0x4000044C) - Data: 00 00 00 00  returns 0x00 (0001ms, 0902ms total)
T0AC4 001:948 JLINK_ReadMem (0x40010C00, 0x0018 Bytes, ...) -- CPU_ReadMem(24 bytes @ 0x40010C00) - Data: 44 44 48 44 44 44 44 44 00 00 00 00 10 00 00 00 ...  returns 0x00 (0001ms, 0903ms total)
T0AC4 001:949 JLINK_ReadMem (0x40010C18, 0x0004 Bytes, ...) -- CPU_ReadMem(4 bytes @ 0x40010C18) - Data: 00 00 00 00  returns 0x00 (0001ms, 0904ms total)
T0AC4 001:951 JLINK_ReadMem (0x40010800, 0x0018 Bytes, ...) -- CPU_ReadMem(24 bytes @ 0x40010800) - Data: 44 44 44 44 44 44 84 88 00 00 00 00 00 A0 00 00 ...  returns 0x00 (0001ms, 0905ms total)
T0AC4 001:952 JLINK_ReadMem (0x40010818, 0x0004 Bytes, ...) -- CPU_ReadMem(4 bytes @ 0x40010818) - Data: 00 00 00 00  returns 0x00 (0001ms, 0906ms total)
T0AC4 001:954 JLINK_ReadMem (0x40000800, 0x002C Bytes, ...) -- CPU_ReadMem(44 bytes @ 0x40000800) - Data: 00 00 00 00 00 00 00 00 00 00 00 00 00 00 00 00 ...  returns 0x00 (0002ms, 0908ms total)
T0AC4 001:956 JLINK_ReadMem (0x4000082C, 0x0004 Bytes, ...) -- CPU_ReadMem(4 bytes @ 0x4000082C) - Data: 00 00 00 00  returns 0x00 (0001ms, 0909ms total)
T0AC4 001:957 JLINK_ReadMem (0x40000834, 0x000C Bytes, ...) -- CPU_ReadMem(12 bytes @ 0x40000834) - Data: 00 00 00 00 00 00 00 00 00 00 00 00  returns 0x00 (0002ms, 0911ms total)
T0AC4 001:959 JLINK_ReadMem (0x40000840, 0x0004 Bytes, ...) -- CPU_ReadMem(4 bytes @ 0x40000840) - Data: 00 00 00 00  returns 0x00 (0001ms, 0912ms total)
T0AC4 001:960 JLINK_ReadMem (0x40000848, 0x0004 Bytes, ...) -- CPU_ReadMem(4 bytes @ 0x40000848) - Data: 00 00 00 00  returns 0x00 (0001ms, 0913ms total)
T0AC4 001:961 JLINK_ReadMem (0x4000084C, 0x0004 Bytes, ...) -- CPU_ReadMem(4 bytes @ 0x4000084C) - Data: 00 00 00 00  returns 0x00 (0001ms, 0914ms total)
T1C20 002:764 JLINK_Go() -- CPU_ReadMem(4 bytes @ 0xE0001000) -- CPU_WriteMem(4 bytes @ 0xE0002008) (0006ms, 0920ms total)
T1C20 002:871 JLINK_IsHalted()  returns FALSE (0001ms, 0921ms total)
T1C20 002:972 JLINK_IsHalted()  returns FALSE (0001ms, 0921ms total)
T1C20 003:073 JLINK_IsHalted()  returns FALSE (0001ms, 0921ms total)
T1C20 003:174 JLINK_IsHalted()  returns FALSE (0001ms, 0921ms total)
T1C20 003:275 JLINK_IsHalted()  returns FALSE (0001ms, 0921ms total)
T1C20 003:376 JLINK_ReadMemU32(0xE0001004, 0x0001 Items, ...) -- CPU is running -- CPU_ReadMem(4 bytes @ 0xE0001004) - Data: 9C 08 94 00  returns 0x01 (0001ms, 0921ms total)
T0AC4 003:378 JLINK_ReadMem (0x20000060, 0x0004 Bytes, ...) -- CPU is running -- CPU_ReadMem(4 bytes @ 0x20000060) - Data: 00 24 F4 00  returns 0x00 (0002ms, 0923ms total)
T0AC4 003:380 JLINK_ReadMem (0x20000010, 0x0004 Bytes, ...) -- CPU is running -- CPU_ReadMem(4 bytes @ 0x20000010) - Data: 00 00 00 00  returns 0x00 (0002ms, 0925ms total)
T0AC4 003:382 JLINK_ReadMem (0x20000218, 0x0019 Bytes, ...) -- CPU is running -- CPU_ReadMem(25 bytes @ 0x20000218) - Data: 00 00 00 00 00 00 00 00 00 00 00 00 00 00 00 00 ...  returns 0x00 (0002ms, 0927ms total)
T0AC4 003:384 JLINK_ReadMem (0x20000231, 0x000A Bytes, ...) -- CPU is running -- CPU_ReadMem(10 bytes @ 0x20000231) - Data: 00 00 00 00 00 00 00 00 00 00  returns 0x00 (0003ms, 0930ms total)
T0AC4 003:388 JLINK_ReadMem (0x20000020, 0x0004 Bytes, ...) -- CPU is running -- CPU_ReadMem(4 bytes @ 0x20000020) - Data: 00 00 00 00  returns 0x00 (0001ms, 0931ms total)
T0AC4 003:390 JLINK_ReadMem (0x20000030, 0x0001 Bytes, ...) -- CPU is running -- CPU_ReadMem(1 bytes @ 0x20000030) - Data: 3F  returns 0x00 (0001ms, 0932ms total)
T0AC4 003:392 JLINK_ReadMem (0x20000031, 0x0001 Bytes, ...) -- CPU is running -- CPU_ReadMem(1 bytes @ 0x20000031) - Data: 00  returns 0x00 (0001ms, 0933ms total)
T0AC4 003:393 JLINK_ReadMem (0x20000032, 0x0001 Bytes, ...) -- CPU is running -- CPU_ReadMem(1 bytes @ 0x20000032) - Data: 00  returns 0x00 (0002ms, 0935ms total)
T0AC4 003:395 JLINK_ReadMem (0x20000000, 0x0001 Bytes, ...) -- CPU is running -- CPU_ReadMem(1 bytes @ 0x20000000) - Data: 01  returns 0x00 (0001ms, 0936ms total)
T0AC4 003:397 JLINK_ReadMem (0x40000400, 0x002C Bytes, ...) -- CPU is running -- CPU_ReadMem(44 bytes @ 0x40000400) - Data: 01 00 00 00 00 00 00 00 00 00 00 00 00 00 00 00 ...  returns 0x00 (0002ms, 0938ms total)
T0AC4 003:399 JLINK_ReadMem (0x4000042C, 0x0004 Bytes, ...) -- CPU is running -- CPU_ReadMem(4 bytes @ 0x4000042C) - Data: FF 00 00 00  returns 0x00 (0001ms, 0939ms total)
T0AC4 003:400 JLINK_ReadMem (0x40000434, 0x000C Bytes, ...) -- CPU is running -- CPU_ReadMem(12 bytes @ 0x40000434) - Data: 00 00 00 00 00 00 00 00 00 00 00 00  returns 0x00 (0002ms, 0941ms total)
T0AC4 003:402 JLINK_ReadMem (0x40000440, 0x0004 Bytes, ...) -- CPU is running -- CPU_ReadMem(4 bytes @ 0x40000440) - Data: 7F 00 00 00  returns 0x00 (0001ms, 0942ms total)
T0AC4 003:403 JLINK_ReadMem (0x40000448, 0x0004 Bytes, ...) -- CPU is running -- CPU_ReadMem(4 bytes @ 0x40000448) - Data: 00 00 00 00  returns 0x00 (0001ms, 0943ms total)
T0AC4 003:404 JLINK_ReadMem (0x4000044C, 0x0004 Bytes, ...) -- CPU is running -- CPU_ReadMem(4 bytes @ 0x4000044C) - Data: 01 00 00 00  returns 0x00 (0001ms, 0944ms total)
T0AC4 003:405 JLINK_ReadMem (0x40000400, 0x0004 Bytes, ...) -- CPU is running -- CPU_ReadMem(4 bytes @ 0x40000400) - Data: 01 00 00 00  returns 0x00 (0001ms, 0945ms total)
T0AC4 003:406 JLINK_ReadMem (0x40000400, 0x0004 Bytes, ...) -- CPU is running -- CPU_ReadMem(4 bytes @ 0x40000400) - Data: 01 00 00 00  returns 0x00 (0001ms, 0946ms total)
T0AC4 003:407 JLINK_ReadMem (0x40000400, 0x0004 Bytes, ...) -- CPU is running -- CPU_ReadMem(4 bytes @ 0x40000400) - Data: 01 00 00 00  returns 0x00 (0001ms, 0947ms total)
T0AC4 003:408 JLINK_ReadMem (0x40000400, 0x0004 Bytes, ...) -- CPU is running -- CPU_ReadMem(4 bytes @ 0x40000400) - Data: 01 00 00 00  returns 0x00 (0001ms, 0948ms total)
T0AC4 003:409 JLINK_ReadMem (0x40000400, 0x0004 Bytes, ...) -- CPU is running -- CPU_ReadMem(4 bytes @ 0x40000400) - Data: 01 00 00 00  returns 0x00 (0001ms, 0949ms total)
T0AC4 003:410 JLINK_ReadMem (0x40000400, 0x0004 Bytes, ...) -- CPU is running -- CPU_ReadMem(4 bytes @ 0x40000400) - Data: 01 00 00 00  returns 0x00 (0001ms, 0950ms total)
T0AC4 003:411 JLINK_ReadMem (0x40000400, 0x0004 Bytes, ...) -- CPU is running -- CPU_ReadMem(4 bytes @ 0x40000400) - Data: 01 00 00 00  returns 0x00 (0001ms, 0951ms total)
T0AC4 003:412 JLINK_ReadMem (0x40000400, 0x0004 Bytes, ...) -- CPU is running -- CPU_ReadMem(4 bytes @ 0x40000400) - Data: 01 00 00 00  returns 0x00 (0001ms, 0952ms total)
T0AC4 003:413 JLINK_ReadMem (0x40000400, 0x0004 Bytes, ...) -- CPU is running -- CPU_ReadMem(4 bytes @ 0x40000400) - Data: 01 00 00 00  returns 0x00 (0001ms, 0953ms total)
T0AC4 003:414 JLINK_ReadMem (0x40000410, 0x0004 Bytes, ...) -- CPU is running -- CPU_ReadMem(4 bytes @ 0x40000410) - Data: 1F 00 00 00  returns 0x00 (0001ms, 0954ms total)
T0AC4 003:415 JLINK_ReadMem (0x40000410, 0x0004 Bytes, ...) -- CPU is running -- CPU_ReadMem(4 bytes @ 0x40000410) - Data: 1F 00 00 00  returns 0x00 (0001ms, 0955ms total)
T0AC4 003:416 JLINK_ReadMem (0x40000410, 0x0004 Bytes, ...) -- CPU is running -- CPU_ReadMem(4 bytes @ 0x40000410) - Data: 1F 00 00 00  returns 0x00 (0001ms, 0956ms total)
T0AC4 003:417 JLINK_ReadMem (0x40000410, 0x0004 Bytes, ...) -- CPU is running -- CPU_ReadMem(4 bytes @ 0x40000410) - Data: 1F 00 00 00  returns 0x00 (0001ms, 0957ms total)
T0AC4 003:418 JLINK_ReadMem (0x40000410, 0x0004 Bytes, ...) -- CPU is running -- CPU_ReadMem(4 bytes @ 0x40000410) - Data: 1F 00 00 00  returns 0x00 (0001ms, 0958ms total)
T0AC4 003:419 JLINK_ReadMem (0x40000410, 0x0004 Bytes, ...) -- CPU is running -- CPU_ReadMem(4 bytes @ 0x40000410) - Data: 1F 00 00 00  returns 0x00 (0001ms, 0959ms total)
T0AC4 003:420 JLINK_ReadMem (0x40000410, 0x0004 Bytes, ...) -- CPU is running -- CPU_ReadMem(4 bytes @ 0x40000410) - Data: 1F 00 00 00  returns 0x00 (0001ms, 0960ms total)
T0AC4 003:421 JLINK_ReadMem (0x40000410, 0x0004 Bytes, ...) -- CPU is running -- CPU_ReadMem(4 bytes @ 0x40000410) - Data: 1F 00 00 00  returns 0x00 (0001ms, 0961ms total)
T0AC4 003:422 JLINK_ReadMem (0x40000410, 0x0004 Bytes, ...) -- CPU is running -- CPU_ReadMem(4 bytes @ 0x40000410) - Data: 1F 00 00 00  returns 0x00 (0001ms, 0962ms total)
T0AC4 003:423 JLINK_ReadMem (0x40000410, 0x0004 Bytes, ...) -- CPU is running -- CPU_ReadMem(4 bytes @ 0x40000410) - Data: 1F 00 00 00  returns 0x00 (0001ms, 0963ms total)
T0AC4 003:424 JLINK_ReadMem (0x40000410, 0x0004 Bytes, ...) -- CPU is running -- CPU_ReadMem(4 bytes @ 0x40000410) - Data: 1F 00 00 00  returns 0x00 (0001ms, 0964ms total)
T0AC4 003:425 JLINK_ReadMem (0x4000041C, 0x0004 Bytes, ...) -- CPU is running -- CPU_ReadMem(4 bytes @ 0x4000041C) - Data: 00 68 00 00  returns 0x00 (0001ms, 0965ms total)
T0AC4 003:426 JLINK_ReadMem (0x4000041C, 0x0004 Bytes, ...) -- CPU is running -- CPU_ReadMem(4 bytes @ 0x4000041C) - Data: 00 68 00 00  returns 0x00 (0001ms, 0966ms total)
T0AC4 003:427 JLINK_ReadMem (0x4000041C, 0x0004 Bytes, ...) -- CPU is running -- CPU_ReadMem(4 bytes @ 0x4000041C) - Data: 00 68 00 00  returns 0x00 (0001ms, 0967ms total)
T0AC4 003:428 JLINK_ReadMem (0x4000041C, 0x0004 Bytes, ...) -- CPU is running -- CPU_ReadMem(4 bytes @ 0x4000041C) - Data: 00 68 00 00  returns 0x00 (0001ms, 0968ms total)
T0AC4 003:429 JLINK_ReadMem (0x4000041C, 0x0004 Bytes, ...) -- CPU is running -- CPU_ReadMem(4 bytes @ 0x4000041C) - Data: 00 68 00 00  returns 0x00 (0001ms, 0969ms total)
T0AC4 003:430 JLINK_ReadMem (0x4000041C, 0x0004 Bytes, ...) -- CPU is running -- CPU_ReadMem(4 bytes @ 0x4000041C) - Data: 00 68 00 00  returns 0x00 (0001ms, 0970ms total)
T0AC4 003:431 JLINK_ReadMem (0x4000041C, 0x0004 Bytes, ...) -- CPU is running -- CPU_ReadMem(4 bytes @ 0x4000041C) - Data: 00 68 00 00  returns 0x00 (0001ms, 0971ms total)
T0AC4 003:432 JLINK_ReadMem (0x4000041C, 0x0004 Bytes, ...) -- CPU is running -- CPU_ReadMem(4 bytes @ 0x4000041C) - Data: 00 68 00 00  returns 0x00 (0001ms, 0972ms total)
T0AC4 003:433 JLINK_ReadMem (0x4000041C, 0x0004 Bytes, ...) -- CPU is running -- CPU_ReadMem(4 bytes @ 0x4000041C) - Data: 00 68 00 00  returns 0x00 (0001ms, 0973ms total)
T0AC4 003:434 JLINK_ReadMem (0x4000041C, 0x0004 Bytes, ...) -- CPU is running -- CPU_ReadMem(4 bytes @ 0x4000041C) - Data: 00 68 00 00  returns 0x00 (0001ms, 0974ms total)
T0AC4 003:435 JLINK_ReadMem (0x4000041C, 0x0004 Bytes, ...) -- CPU is running -- CPU_ReadMem(4 bytes @ 0x4000041C) - Data: 00 68 00 00  returns 0x00 (0001ms, 0975ms total)
T0AC4 003:436 JLINK_ReadMem (0x4000041C, 0x0004 Bytes, ...) -- CPU is running -- CPU_ReadMem(4 bytes @ 0x4000041C) - Data: 00 68 00 00  returns 0x00 (0001ms, 0976ms total)
T0AC4 003:437 JLINK_ReadMem (0x4000041C, 0x0004 Bytes, ...) -- CPU is running -- CPU_ReadMem(4 bytes @ 0x4000041C) - Data: 00 68 00 00  returns 0x00 (0001ms, 0977ms total)
T0AC4 003:438 JLINK_ReadMem (0x4000041C, 0x0004 Bytes, ...) -- CPU is running -- CPU_ReadMem(4 bytes @ 0x4000041C) - Data: 00 68 00 00  returns 0x00 (0001ms, 0978ms total)
T0AC4 003:439 JLINK_ReadMem (0x4000041C, 0x0004 Bytes, ...) -- CPU is running -- CPU_ReadMem(4 bytes @ 0x4000041C) - Data: 00 68 00 00  returns 0x00 (0001ms, 0979ms total)
T0AC4 003:440 JLINK_ReadMem (0x4000041C, 0x0004 Bytes, ...) -- CPU is running -- CPU_ReadMem(4 bytes @ 0x4000041C) - Data: 00 68 00 00  returns 0x00 (0001ms, 0980ms total)
T0AC4 003:441 JLINK_ReadMem (0x4000041C, 0x0004 Bytes, ...) -- CPU is running -- CPU_ReadMem(4 bytes @ 0x4000041C) - Data: 00 68 00 00  returns 0x00 (0001ms, 0981ms total)
T0AC4 003:442 JLINK_ReadMem (0x4000041C, 0x0004 Bytes, ...) -- CPU is running -- CPU_ReadMem(4 bytes @ 0x4000041C) - Data: 00 68 00 00  returns 0x00 (0001ms, 0982ms total)
T0AC4 003:443 JLINK_ReadMem (0x40000420, 0x0004 Bytes, ...) -- CPU is running -- CPU_ReadMem(4 bytes @ 0x40000420) - Data: 00 10 00 00  returns 0x00 (0001ms, 0983ms total)
T0AC4 003:444 JLINK_ReadMem (0x40000420, 0x0004 Bytes, ...) -- CPU is running -- CPU_ReadMem(4 bytes @ 0x40000420) - Data: 00 10 00 00  returns 0x00 (0001ms, 0984ms total)
T0AC4 003:445 JLINK_ReadMem (0x40000420, 0x0004 Bytes, ...) -- CPU is running -- CPU_ReadMem(4 bytes @ 0x40000420) - Data: 00 10 00 00  returns 0x00 (0001ms, 0985ms total)
T0AC4 003:446 JLINK_ReadMem (0x40000420, 0x0004 Bytes, ...) -- CPU is running -- CPU_ReadMem(4 bytes @ 0x40000420) - Data: 00 10 00 00  returns 0x00 (0001ms, 0986ms total)
T0AC4 003:447 JLINK_ReadMem (0x40000420, 0x0004 Bytes, ...) -- CPU is running -- CPU_ReadMem(4 bytes @ 0x40000420) - Data: 00 10 00 00  returns 0x00 (0001ms, 0987ms total)
T0AC4 003:448 JLINK_ReadMem (0x40000420, 0x0004 Bytes, ...) -- CPU is running -- CPU_ReadMem(4 bytes @ 0x40000420) - Data: 00 10 00 00  returns 0x00 (0001ms, 0988ms total)
T0AC4 003:449 JLINK_ReadMem (0x40000420, 0x0004 Bytes, ...) -- CPU is running -- CPU_ReadMem(4 bytes @ 0x40000420) - Data: 00 10 00 00  returns 0x00 (0001ms, 0989ms total)
T0AC4 003:450 JLINK_ReadMem (0x40000420, 0x0004 Bytes, ...) -- CPU is running -- CPU_ReadMem(4 bytes @ 0x40000420) - Data: 00 10 00 00  returns 0x00 (0001ms, 0990ms total)
T0AC4 003:451 JLINK_ReadMem (0x40000420, 0x0004 Bytes, ...) -- CPU is running -- CPU_ReadMem(4 bytes @ 0x40000420) - Data: 00 10 00 00  returns 0x00 (0001ms, 0991ms total)
T0AC4 003:452 JLINK_ReadMem (0x40000424, 0x0004 Bytes, ...) -- CPU is running -- CPU_ReadMem(4 bytes @ 0x40000424) - Data: 63 00 00 00  returns 0x00 (0001ms, 0992ms total)
T0AC4 003:453 JLINK_ReadMem (0x40000424, 0x0004 Bytes, ...) -- CPU is running -- CPU_ReadMem(4 bytes @ 0x40000424) - Data: FF 00 00 00  returns 0x00 (0001ms, 0993ms total)
T0AC4 003:454 JLINK_ReadMem (0x4000042C, 0x0004 Bytes, ...) -- CPU is running -- CPU_ReadMem(4 bytes @ 0x4000042C) - Data: FF 00 00 00  returns 0x00 (0001ms, 0994ms total)
T0AC4 003:455 JLINK_ReadMem (0x4000042C, 0x0004 Bytes, ...) -- CPU is running -- CPU_ReadMem(4 bytes @ 0x4000042C) - Data: FF 00 00 00  returns 0x00 (0001ms, 0995ms total)
T0AC4 003:456 JLINK_ReadMem (0x40000440, 0x0004 Bytes, ...) -- CPU is running -- CPU_ReadMem(4 bytes @ 0x40000440) - Data: 7F 00 00 00  returns 0x00 (0001ms, 0996ms total)
T0AC4 003:457 JLINK_ReadMem (0x40000440, 0x0004 Bytes, ...) -- CPU is running -- CPU_ReadMem(4 bytes @ 0x40000440) - Data: 7F 00 00 00  returns 0x00 (0001ms, 0997ms total)
T0AC4 003:458 JLINK_ReadMem (0x4000044C, 0x0004 Bytes, ...) -- CPU is running -- CPU_ReadMem(4 bytes @ 0x4000044C) - Data: 01 00 00 00  returns 0x00 (0001ms, 0998ms total)
T0AC4 003:459 JLINK_ReadMem (0x4000044C, 0x0004 Bytes, ...) -- CPU is running -- CPU_ReadMem(4 bytes @ 0x4000044C) - Data: 01 00 00 00  returns 0x00 (0001ms, 0999ms total)
T0AC4 003:460 JLINK_ReadMem (0x40010C00, 0x0018 Bytes, ...) -- CPU is running -- CPU_ReadMem(24 bytes @ 0x40010C00) - Data: 22 44 44 24 22 4B BB B4 78 FC 00 00 10 00 00 00 ...  returns 0x00 (0002ms, 1001ms total)
